# port:group
1:1
2:1
# GHZ Y RI R 50
0
1e-8  0
0     0
0     0
1e-8  0

1.000000000  
0.0020     0.0012    -0.0019    -1.5004e-04  
0.0622    -0.0064     0.0066     4.1257e-04 

1.200000000 
0.0020     0.0016    -0.0019    -1.6840e-04 
0.0622    -0.0080     0.0066     5.9770e-04 
 
1.400000000  
0.0020     0.0019    -0.0019    -1.8853e-04  
0.0622    -0.0096     0.0066     7.7024e-04 
 
1.600000000  
0.0020     0.0022    -0.0019    -2.0986e-04  
0.0622    -0.0111     0.0066     9.3524e-04 
 
1.800000000  
0.0021     0.0026    -0.0019    -2.3212e-04  
0.0622    -0.0127     0.0066         0.0011 
 
2.000000000  
0.0021     0.0029    -0.0019    -2.5514e-04  
0.0621    -0.0143     0.0066         0.0013 
 
2.200000000  
0.0021     0.0032    -0.0019    -2.7884e-04  
0.0621    -0.0159     0.0066         0.0014 
 
2.400000000  
0.0022     0.0036    -0.0019    -3.0317e-04  
0.0621    -0.0175     0.0066         0.0016 
 
2.600000000  
0.0022     0.0039    -0.0019    -3.2813e-04  
0.0621    -0.0191     0.0066         0.0017 
 
2.800000000  
0.0022     0.0043    -0.0019    -3.5371e-04  
0.0621    -0.0208     0.0066         0.0019

3.000000000  
0.0023     0.0046    -0.0019    -3.7994e-04  
0.0620    -0.0224     0.0066     0.0020    

3.200000000  
0.0023     0.0049    -0.0019    -4.0684e-04  
0.0620    -0.0241     0.0066     0.0022    
 
3.400000000  
0.0024     0.0053    -0.0019    -4.3445e-04  
0.0620    -0.0259     0.0066     0.0023    
 
3.600000000  
0.0025     0.0056    -0.0019    -4.6282e-04  
0.0619    -0.0277     0.0066     0.0025    
 
3.800000000  
0.0025     0.0060    -0.0019    -4.9199e-04  
0.0618    -0.0295     0.0066     0.0027    

4.000000000  
0.0026     0.0064    -0.0019    -5.2202e-04  
0.0617    -0.0313     0.0066     0.0028    
 
4.200000000  
0.0027     0.0067    -0.0019    -5.5298e-04  
0.0616    -0.0332     0.0066     0.0030    
 
4.400000000  
0.0028     0.0071    -0.0019    -5.8492e-04  
0.0615    -0.0352     0.0066     0.0032    
 
4.600000000  
0.0028     0.0075    -0.0019    -6.1794e-04  
0.0614    -0.0372     0.0066     0.0033    
 
4.800000000  
0.0029     0.0079    -0.0019    -6.5212e-04  
0.0612    -0.0393     0.0066     0.0035    
 
5.000000000  
0.0030     0.0083    -0.0019    -6.8754e-04  
0.0610    -0.0414     0.0066     0.0037